T3918 6542:883 SEGGER J-Link V6.20 Log File (0000ms, 79333ms total)
T3918 6542:883 DLL Compiled: Sep  8 2017 18:04:35 (0000ms, 79333ms total)
T3918 6542:883 Logging started @ 2018-08-18 23:57 (0000ms, 79333ms total)
T3918 6542:883 JLINK_SetWarnOutHandler(...) (0000ms, 79333ms total)
T3918 6542:883 JLINK_OpenEx(...)
Firmware: J-Link ARM-OB STM32 compiled Aug 22 2012 19:52:04
Hardware: V7.00
S/N: 20090928
Feature(s): RDI,FlashDL,FlashBP,JFlash,GDBFull
TELNET listener socket opened on port 19021WEBSRV 
Webserver running on local port 19080  returns O.K. (0110ms, 79443ms total)
T3918 6542:993 JLINK_GetEmuCaps()  returns 0x88EA5833 (0000ms, 79443ms total)
T3918 6542:994 JLINK_TIF_GetAvailable(...) (0000ms, 79443ms total)
T3918 6542:994 JLINK_SetErrorOutHandler(...) (0000ms, 79443ms total)
T3918 6542:994 JLINK_ExecCommand("ProjectFile = "F:\System\Documents\GitHub\Snake\MDK-ARM\JLinkSettings.ini"", ...).   returns 0x00 (0003ms, 79446ms total)
T3918 6542:998 JLINK_ExecCommand("Device = SKEAZ128xxx4", ...). Device "SKEAZ128XXX4" selected.  returns 0x00 (0003ms, 79449ms total)
T3918 6543:001 JLINK_ExecCommand("DisableConnectionTimeout", ...).   returns 0x01 (0000ms, 79449ms total)
T3918 6543:001 JLINK_GetHardwareVersion()  returns 0x11170 (0000ms, 79449ms total)
T3918 6543:001 JLINK_GetDLLVersion()  returns 62000 (0000ms, 79449ms total)
T3918 6543:001 JLINK_GetFirmwareString(...) (0000ms, 79449ms total)
T3918 6543:009 JLINK_GetDLLVersion()  returns 62000 (0000ms, 79449ms total)
T3918 6543:009 JLINK_GetCompileDateTime() (0000ms, 79449ms total)
T3918 6543:011 JLINK_GetFirmwareString(...) (0000ms, 79449ms total)
T3918 6543:013 JLINK_GetHardwareVersion()  returns 0x11170 (0000ms, 79449ms total)
T3918 6543:020 JLINK_TIF_Select(JLINKARM_TIF_SWD)  returns 0x00 (0001ms, 79450ms total)
T3918 6543:021 JLINK_SetSpeed(500) (0000ms, 79450ms total)
T3918 6543:021 JLINK_GetId()InitTarget() >0x10B TIF> >0x0D TIF> >0x28 TIF> >0x0D TIF> >0x28 TIF> >0x0D TIF> >0x28 TIF> >0x0D TIF> >0x28 TIF> >0x0D TIF> >0x21 TIF> >0x0D TIF> >0x28 TIF> >0x0D TIF> >0x21 TIF> >0x0D TIF> >0x21 TIF> >0x0D TIF> >0x21 TIF> >0x0D TIF> >0x21 TIF> >0x0D TIF> >0x21 TIF> >0x0D TIF> >0x21 TIF> >0x0D TIF> >0x21 TIF> >0x0D TIF> >0x21 TIF> >0x0D TIF> >0x21 TIF> >0x0D TIF> >0x21 TIF> >0x0D TIF> >0x21 TIF> >0x0D TIF> >0x21 TIF> >0x0D TIF> >0x21 TIF> >0x0D TIF> >0x21 TIF> >0x0D TIF>
 >0x21 TIF> >0x0D TIF> >0x21 TIF> >0x0D TIF> >0x21 TIF> >0x0D TIF> >0x21 TIF> >0x0D TIF> >0x21 TIF> >0x0D TIF> >0x21 TIF> >0x0D TIF> >0x21 TIF> >0x0D TIF> >0x21 TIF> >0x0D TIF> >0x21 TIF> >0x0D TIF> >0x21 TIF> >0x0D TIF> >0x21 TIF> >0x0D TIF> >0x21 TIF> >0x0D TIF> >0x21 TIF> >0x0D TIF> >0x21 TIF> >0x0D TIF> >0x21 TIF> >0x0D TIF> >0x21 TIF> >0x0D TIF> >0x21 TIF> >0x0D TIF> >0x21 TIF> >0x0D TIF> >0x21 TIF> >0x0D TIF> >0x21 TIF> >0x0D TIF> >0x21 TIF> >0x0D TIF> >0x21 TIF> >0x0D TIF> >0x21 TIF> >0x0D TIF>
 >0x21 TIF> >0x0D TIF> >0x21 TIF> >0x0D TIF> >0x21 TIF> >0x0D TIF> >0x21 TIF> >0x0D TIF> >0x21 TIF> >0x0D TIF> >0x21 TIF> >0x0D TIF> >0x21 TIF> >0x0D TIF> >0x21 TIF> >0x0D TIF> >0x21 TIF> >0x0D TIF> >0x21 TIF> >0x0D TIF> >0x21 TIF> >0x0D TIF> >0x21 TIF> >0x0D TIF> >0x21 TIF> >0x0D TIF> >0x21 TIF> >0x0D TIF> >0x21 TIF> >0x0D TIF> >0x21 TIF> >0x0D TIF> >0x21 TIF> >0x0D TIF> >0x21 TIF> >0x0D TIF> >0x21 TIF> >0x0D TIF> >0x21 TIF> >0x0D TIF> >0x21 TIF> >0x0D TIF> >0x21 TIF> >0x0D TIF> >0x21 TIF> >0x0D TIF>
 >0x21 TIF> >0x0D TIF> >0x21 TIF> >0x0D TIF> >0x21 TIF> >0x0D TIF> >0x21 TIF> >0x0D TIF> >0x21 TIF> >0x0D TIF> >0x21 TIF> >0x0D TIF> >0x21 TIF> >0x0D TIF> >0x21 TIF> >0x0D TIF> >0x21 TIF> >0x0D TIF> >0x21 TIF> >0x0D TIF> >0x21 TIF> >0x0D TIF> >0x21 TIF> >0x0D TIF> >0x21 TIF> >0x0D TIF> >0x21 TIF> >0x0D TIF> >0x21 TIF> >0x0D TIF> >0x21 TIF> >0x0D TIF> >0x21 TIF> >0x0D TIF> >0x21 TIF> >0x0D TIF> >0x21 TIF> >0x0D TIF> >0x21 TIF> >0x0D TIF> >0x21 TIF> >0x0D TIF> >0x21 TIF> >0x0D TIF> >0x21 TIF> >0x0D TIF>
 >0x21 TIF> >0x0D TIF> >0x21 TIF> >0x0D TIF> >0x21 TIF> >0x0D TIF> >0x21 TIF> >0x0D TIF> >0x21 TIF> >0x0D TIF> >0x21 TIF> >0x0D TIF> >0x21 TIF> >0x0D TIF> >0x21 TIF> >0x0D TIF> >0x21 TIF> >0x0D TIF> >0x21 TIF> >0x0D TIF> >0x21 TIF> >0x0D TIF> >0x21 TIF> >0x0D TIF> >0x21 TIF> >0x0D TIF> >0x21 TIF> >0x0D TIF> >0x21 TIF> >0x0D TIF> >0x21 TIF> >0x0D TIF> >0x21 TIF> >0x0D TIF> >0x21 TIF> >0x0D TIF> >0x21 TIF> >0x0D TIF> >0x21 TIF> >0x0D TIF> >0x21 TIF> >0x0D TIF> >0x21 TIF> >0x0D TIF> >0x21 TIF> >0x0D TIF>
 >0x21 TIF> >0x0D TIF> >0x21 TIF> >0x0D TIF> >0x28 TIF> >0x0D TIF> >0x28 TIF> >0x0D TIF> >0x28 TIF> >0x0D TIF> >0x21 TIF> >0x0D TIF> >0x21 TIF> >0x10B TIF>Found SW-DP with ID 0x0BC11477 >0x0D TIF> >0x28 TIF> >0x0D TIF> >0x28 TIF> >0x0D TIF> >0x28 TIF> >0x0D TIF> >0x28 TIF> >0x0D TIF> >0x21 TIF> >0x0D TIF> >0x28 TIF>Scanning AP map to find all available APs >0x0D TIF> >0x28 TIF> >0x0D TIF> >0x21 TIF> >0x0D TIF> >0x21 TIF> >0x0D TIF> >0x28 TIF> >0x0D TIF> >0x21 TIF> >0x0D TIF> >0x21 TIF> >0x0D TIF>
 >0x28 TIF> >0x0D TIF> >0x21 TIF> >0x0D TIF> >0x21 TIF>AP[2]: Stopped AP scan as end of AP map has been reachedAP[0]: AHB-AP (IDR: 0x04770031)AP[1]: JTAG-AP (IDR: 0x001C0020)Iterating through AP map to find AHB-AP to use >0x42 TIF> >0x28 TIF> >0x0D TIF> >0x21 TIF> >0x0D TIF> >0x21 TIF> >0x42 TIF> >0x28 TIF> >0x0D TIF> >0x28 TIF> >0x0D TIF> >0x28 TIF> >0x0D TIF> >0x21 TIF> >0x0D TIF> >0x21 TIF>AP[0]: Core foundAP[0]: AHB-AP ROM base: 0xF0002000 >0x0D TIF> >0x28 TIF> >0x0D TIF> >0x28 TIF> >0x0D TIF>
 >0x28 TIF> >0x0D TIF> >0x21 TIF> >0x0D TIF> >0x21 TIF>CPUID register: 0x410CC600. Implementer code: 0x41 (ARM)Found Cortex-M0 r0p0, Little endian. -- CPU_ReadMem(4 bytes @ 0xE000EDF0) -- CPU_WriteMem(4 bytes @ 0xE000EDF0) -- CPU_ReadMem(4 bytes @ 0xE0002000)FPUnit: 2 code (BP) slots and 0 literal slots -- CPU_ReadMem(4 bytes @ 0xE000EDFC) -- CPU_WriteMem(4 bytes @ 0xE000EDFC) -- CPU_ReadMem(4 bytes @ 0xE0001000) -- CPU_WriteMem(4 bytes @ 0xE0001000)CoreSight components:ROMTbl[0] @ F0002000
 -- CPU_ReadMem(16 bytes @ 0xF0002000) -- CPU_ReadMem(16 bytes @ 0xE00FFFF0) -- CPU_ReadMem(16 bytes @ 0xE00FFFE0)ROMTbl[0][0]: E00FF000, CID: B105100D, PID: 000BB4C0 ROM TableROMTbl[1] @ E00FF000 -- CPU_ReadMem(16 bytes @ 0xE00FF000) -- CPU_ReadMem(16 bytes @ 0xE000EFF0) -- CPU_ReadMem(16 bytes @ 0xE000EFE0)ROMTbl[1][0]: E000E000, CID: B105E00D, PID: 000BB008 SCS -- CPU_ReadMem(16 bytes @ 0xE0001FF0) -- CPU_ReadMem(16 bytes @ 0xE0001FE0)ROMTbl[1][1]: E0001000, CID: B105E00D, PID: 000BB00A DWT
 -- CPU_ReadMem(16 bytes @ 0xE0002FF0) -- CPU_ReadMem(16 bytes @ 0xE0002FE0)ROMTbl[1][2]: E0002000, CID: B105E00D, PID: 000BB00B FPB >0x0D TIF> >0x21 TIF>  returns 0x0BC11477 (0255ms, 79705ms total)
T3918 6543:276 JLINK_GetDLLVersion()  returns 62000 (0000ms, 79705ms total)
T3918 6543:276 JLINK_CORE_GetFound()  returns 0x60000FF (0000ms, 79705ms total)
T3918 6543:276 JLINK_GetDebugInfo(0x100 = JLINKARM_ROM_TABLE_ADDR_INDEX) -- Value=0xF0002000  returns 0x00 (0000ms, 79705ms total)
T3918 6543:279 JLINK_GetDebugInfo(0x100 = JLINKARM_ROM_TABLE_ADDR_INDEX) -- Value=0xF0002000  returns 0x00 (0000ms, 79705ms total)
T3918 6543:279 JLINK_GetDebugInfo(0x101 = JLINKARM_DEBUG_INFO_ETM_ADDR_INDEX) -- Value=0x00000000  returns 0x00 (0000ms, 79705ms total)
T3918 6543:279 JLINK_ReadMemEx(0xE0041FF0, 0x0010 Bytes, ..., Flags = 0x02000004) -- CPU_ReadMem(16 bytes @ 0xE0041FF0) - Data: 00 00 00 00 00 00 00 00 00 00 00 00 00 00 00 00  returns 0x10 (0001ms, 79706ms total)
T3918 6543:280 JLINK_GetDebugInfo(0x102 = JLINKARM_DEBUG_INFO_MTB_ADDR_INDEX) -- Value=0x00000000  returns 0x00 (0000ms, 79706ms total)
T3918 6543:280 JLINK_GetDebugInfo(0x103 = JLINKARM_DEBUG_INFO_TPIU_ADDR_INDEX) -- Value=0x00000000  returns 0x00 (0000ms, 79706ms total)
T3918 6543:280 JLINK_ReadMemEx(0xE0040FF0, 0x0010 Bytes, ..., Flags = 0x02000004) -- CPU_ReadMem(16 bytes @ 0xE0040FF0) - Data: 00 00 00 00 00 00 00 00 00 00 00 00 00 00 00 00  returns 0x10 (0002ms, 79708ms total)
T3918 6543:282 JLINK_GetDebugInfo(0x104 = JLINKARM_DEBUG_INFO_ITM_ADDR_INDEX) -- Value=0xE0000000  returns 0x00 (0000ms, 79708ms total)
T3918 6543:282 JLINK_GetDebugInfo(0x105 = JLINKARM_DEBUG_INFO_DWT_ADDR_INDEX) -- Value=0xE0001000  returns 0x00 (0000ms, 79708ms total)
T3918 6543:282 JLINK_GetDebugInfo(0x106 = JLINKARM_DEBUG_INFO_FPB_ADDR_INDEX) -- Value=0xE0002000  returns 0x00 (0000ms, 79708ms total)
T3918 6543:282 JLINK_GetDebugInfo(0x107 = JLINKARM_DEBUG_INFO_NVIC_ADDR_INDEX) -- Value=0xE000E000  returns 0x00 (0000ms, 79708ms total)
T3918 6543:282 JLINK_GetDebugInfo(0x10C = JLINKARM_DEBUG_INFO_DBG_ADDR_INDEX) -- Value=0xE000EDF0  returns 0x00 (0000ms, 79708ms total)
T3918 6543:282 JLINK_ReadMemU32(0xE000ED00, 0x0001 Items, ...) -- CPU_ReadMem(4 bytes @ 0xE000ED00) - Data: 00 C6 0C 41  returns 0x01 (0001ms, 79709ms total)
T3918 6543:283 JLINK_GetDebugInfo(0x10F = JLINKARM_DEBUG_INFO_HAS_CORTEX_M_SECURITY_EXT_INDEX) -- Value=0x00000000  returns 0x00 (0000ms, 79709ms total)
T3918 6543:283 JLINK_SetResetType(JLINKARM_CM3_RESET_TYPE_NORMAL)  returns JLINKARM_CM3_RESET_TYPE_NORMAL (0000ms, 79709ms total)
T3918 6543:283 JLINK_Reset()Executing ResetTarget() -- CPU_ReadMem(4 bytes @ 0xE000EDFC) -- CPU_WriteMem(4 bytes @ 0xE000EDFC) -- CPU_WriteMem(4 bytes @ 0xE000ED0C) -- CPU_ReadMem(4 bytes @ 0xE000EDF0) -- CPU_ReadMem(4 bytes @ 0xE000EDF0) -- CPU_WriteMem(4 bytes @ 0xE000EDFC)AfterResetTarget() >0x0D TIF> >0x28 TIF> >0x0D TIF> >0x28 TIF> >0x0D TIF> >0x28 TIF> >0x0D TIF> >0x28 TIF> >0x0D TIF> >0x28 TIF> >0x0D TIF> >0x21 TIF> >0x0D TIF> >0x21 TIF> >0x0D TIF> >0x28 TIF> >0x0D TIF> >0x28 TIF> >0x0D TIF>
 >0x21 TIF> >0x0D TIF> >0x21 TIF> >0x0D TIF> >0x28 TIF> >0x0D TIF> >0x28 TIF> >0x0D TIF> >0x28 TIF> >0x0D TIF> >0x28 TIF> >0x0D TIF> >0x28 TIF> >0x0D TIF> >0x28 TIF> >0x0D TIF> >0x28 TIF> >0x0D TIF> >0x28 TIF> >0x0D TIF> >0x28 TIF> >0x0D TIF> >0x28 TIF> >0x0D TIF> >0x28 TIF> >0x0D TIF> >0x28 TIF> >0x0D TIF> >0x28 TIF> -- CPU_WriteMem(4 bytes @ 0xE0002000) -- CPU_ReadMem(4 bytes @ 0xE000EDFC) -- CPU_ReadMem(4 bytes @ 0xE0001000) -- CPU_WriteMem(4 bytes @ 0xE0001000) (0055ms, 79764ms total)
T3918 6543:338 JLINK_Halt()  returns 0x00 (0000ms, 79764ms total)
T3918 6543:338 JLINK_ReadMemU32(0xE000EDF0, 0x0001 Items, ...) -- CPU_ReadMem(4 bytes @ 0xE000EDF0) - Data: 03 00 03 00  returns 0x01 (0002ms, 79766ms total)
T3918 6543:340 JLINK_WriteU32(0xE000EDF0, 0xA05F0003) -- CPU_WriteMem(4 bytes @ 0xE000EDF0)  returns 0x00 (0001ms, 79767ms total)
T3918 6543:341 JLINK_WriteU32(0xE000EDFC, 0x01000000) -- CPU_WriteMem(4 bytes @ 0xE000EDFC)  returns 0x00 (0001ms, 79768ms total)
T3918 6543:353 JLINK_GetHWStatus(...)  returns 0x00 (0000ms, 79768ms total)
T3918 6543:359 JLINK_GetNumBPUnits(Type = 0xFFFFFF00)  returns 0x02 (0000ms, 79768ms total)
T3918 6543:359 JLINK_GetNumBPUnits(Type = 0xF0)  returns 0x2000 (0000ms, 79768ms total)
T3918 6543:359 JLINK_GetNumWPUnits()  returns 0x02 (0000ms, 79768ms total)
T3918 6543:366 JLINK_GetSpeed()  returns 0x1F4 (0000ms, 79768ms total)
T3918 6543:370 JLINK_ReadMemU32(0xE000E004, 0x0001 Items, ...) -- CPU_ReadMem(4 bytes @ 0xE000E004) - Data: 00 00 00 00  returns 0x01 (0001ms, 79769ms total)
T3918 6543:371 JLINK_Halt()  returns 0x00 (0000ms, 79769ms total)
T3918 6543:371 JLINK_IsHalted()  returns TRUE (0000ms, 79769ms total)
T3918 6543:374 JLINK_WriteMem(0x1FFFF000, 0x01AC Bytes, ...) - Data: 00 BE 0A E0 0D 78 2D 06 68 40 08 24 40 00 00 D3 ... -- CPU_WriteMem(428 bytes @ 0x1FFFF000)  returns 0x1AC (0021ms, 79790ms total)
T3918 6543:395 JLINK_WriteReg(R0, 0x00000000)  returns 0x00 (0000ms, 79790ms total)
T3918 6543:395 JLINK_WriteReg(R1, 0x00F42400)  returns 0x00 (0000ms, 79790ms total)
T3918 6543:395 JLINK_WriteReg(R2, 0x00000001)  returns 0x00 (0000ms, 79790ms total)
T3918 6543:395 JLINK_WriteReg(R3, 0x00000000)  returns 0x00 (0000ms, 79790ms total)
T3918 6543:395 JLINK_WriteReg(R4, 0x00000000)  returns 0x00 (0000ms, 79790ms total)
T3918 6543:395 JLINK_WriteReg(R5, 0x00000000)  returns 0x00 (0000ms, 79790ms total)
T3918 6543:395 JLINK_WriteReg(R6, 0x00000000)  returns 0x00 (0000ms, 79790ms total)
T3918 6543:395 JLINK_WriteReg(R7, 0x00000000)  returns 0x00 (0000ms, 79790ms total)
T3918 6543:395 JLINK_WriteReg(R8, 0x00000000)  returns 0x00 (0000ms, 79790ms total)
T3918 6543:395 JLINK_WriteReg(R9, 0x1FFFF1A8)  returns 0x00 (0000ms, 79790ms total)
T3918 6543:395 JLINK_WriteReg(R10, 0x00000000)  returns 0x00 (0000ms, 79790ms total)
T3918 6543:395 JLINK_WriteReg(R11, 0x00000000)  returns 0x00 (0000ms, 79790ms total)
T3918 6543:395 JLINK_WriteReg(R12, 0x00000000)  returns 0x00 (0000ms, 79790ms total)
T3918 6543:395 JLINK_WriteReg(R13 (SP), 0x20000000)  returns 0x00 (0000ms, 79790ms total)
T3918 6543:395 JLINK_WriteReg(R14, 0x1FFFF001)  returns 0x00 (0000ms, 79790ms total)
T3918 6543:395 JLINK_WriteReg(R15 (PC), 0x1FFFF038)  returns 0x00 (0000ms, 79790ms total)
T3918 6543:395 JLINK_WriteReg(XPSR, 0x01000000)  returns 0x00 (0000ms, 79790ms total)
T3918 6543:395 JLINK_WriteReg(MSP, 0x20000000)  returns 0x00 (0000ms, 79790ms total)
T3918 6543:395 JLINK_WriteReg(PSP, 0x20000000)  returns 0x00 (0000ms, 79790ms total)
T3918 6543:395 JLINK_WriteReg(CFBP, 0x00000000)  returns 0x00 (0000ms, 79790ms total)
T3918 6543:395 JLINK_SetBPEx(Addr = 0x1FFFF000, Type = 0xFFFFFFF2)  returns 0x00000001 (0000ms, 79790ms total)
T3918 6543:395 JLINK_Go() -- CPU_WriteMem(4 bytes @ 0xE0002000) -- CPU_ReadMem(4 bytes @ 0xE0001000) -- CPU_WriteMem(4 bytes @ 0xE0001000) -- CPU_WriteMem(4 bytes @ 0xE0002008) -- CPU_WriteMem(4 bytes @ 0xE000200C) -- CPU_WriteMem(4 bytes @ 0xE0001004) (0014ms, 79804ms total)
T3918 6543:409 JLINK_IsHalted()  returns TRUE (0011ms, 79815ms total)
T3918 6543:420 JLINK_ReadReg(R15 (PC))  returns 0x1FFFF000 (0000ms, 79804ms total)
T3918 6543:420 JLINK_ClrBPEx(BPHandle = 0x00000001)  returns 0x00 (0000ms, 79804ms total)
T3918 6543:420 JLINK_ReadReg(R0)  returns 0x00000000 (0000ms, 79804ms total)
T3918 6543:421 JLINK_WriteReg(R0, 0x00000000)  returns 0x00 (0000ms, 79804ms total)
T3918 6543:421 JLINK_WriteReg(R1, 0x00F42400)  returns 0x00 (0000ms, 79804ms total)
T3918 6543:421 JLINK_WriteReg(R2, 0x00000001)  returns 0x00 (0000ms, 79804ms total)
T3918 6543:421 JLINK_WriteReg(R3, 0x00000000)  returns 0x00 (0000ms, 79804ms total)
T3918 6543:421 JLINK_WriteReg(R4, 0x00000000)  returns 0x00 (0000ms, 79804ms total)
T3918 6543:421 JLINK_WriteReg(R5, 0x00000000)  returns 0x00 (0000ms, 79804ms total)
T3918 6543:421 JLINK_WriteReg(R6, 0x00000000)  returns 0x00 (0000ms, 79804ms total)
T3918 6543:421 JLINK_WriteReg(R7, 0x00000000)  returns 0x00 (0000ms, 79804ms total)
T3918 6543:421 JLINK_WriteReg(R8, 0x00000000)  returns 0x00 (0000ms, 79804ms total)
T3918 6543:421 JLINK_WriteReg(R9, 0x1FFFF1A8)  returns 0x00 (0000ms, 79804ms total)
T3918 6543:421 JLINK_WriteReg(R10, 0x00000000)  returns 0x00 (0000ms, 79804ms total)
T3918 6543:421 JLINK_WriteReg(R11, 0x00000000)  returns 0x00 (0000ms, 79804ms total)
T3918 6543:421 JLINK_WriteReg(R12, 0x00000000)  returns 0x00 (0000ms, 79804ms total)
T3918 6543:421 JLINK_WriteReg(R13 (SP), 0x20000000)  returns 0x00 (0000ms, 79804ms total)
T3918 6543:421 JLINK_WriteReg(R14, 0x1FFFF001)  returns 0x00 (0000ms, 79804ms total)
T3918 6543:421 JLINK_WriteReg(R15 (PC), 0x1FFFF06C)  returns 0x00 (0000ms, 79804ms total)
T3918 6543:421 JLINK_WriteReg(XPSR, 0x01000000)  returns 0x00 (0000ms, 79804ms total)
T3918 6543:421 JLINK_WriteReg(MSP, 0x20000000)  returns 0x00 (0000ms, 79804ms total)
T3918 6543:421 JLINK_WriteReg(PSP, 0x20000000)  returns 0x00 (0000ms, 79804ms total)
T3918 6543:421 JLINK_WriteReg(CFBP, 0x00000000)  returns 0x00 (0000ms, 79804ms total)
T3918 6543:421 JLINK_SetBPEx(Addr = 0x1FFFF000, Type = 0xFFFFFFF2)  returns 0x00000002 (0000ms, 79804ms total)
T3918 6543:421 JLINK_Go() -- CPU_WriteMem(4 bytes @ 0xE0002000) -- CPU_ReadMem(4 bytes @ 0xE0001000) -- CPU_WriteMem(4 bytes @ 0xE0001000) (0008ms, 79812ms total)
T3918 6543:429 JLINK_IsHalted()  returns FALSE (0001ms, 79813ms total)
T3918 6543:488 JLINK_IsHalted()  returns FALSE (0001ms, 79813ms total)
T3918 6543:491 JLINK_IsHalted()  returns FALSE (0001ms, 79813ms total)
T3918 6543:494 JLINK_IsHalted()  returns FALSE (0001ms, 79813ms total)
T3918 6543:496 JLINK_IsHalted()  returns FALSE (0001ms, 79813ms total)
T3918 6543:499 JLINK_IsHalted()  returns FALSE (0001ms, 79813ms total)
T3918 6543:504 JLINK_IsHalted()  returns FALSE (0001ms, 79813ms total)
T3918 6543:507 JLINK_IsHalted()  returns FALSE (0001ms, 79813ms total)
T3918 6543:510 JLINK_IsHalted()  returns FALSE (0001ms, 79813ms total)
T3918 6543:513 JLINK_IsHalted()  returns FALSE (0001ms, 79813ms total)
T3918 6543:516 JLINK_IsHalted()  returns FALSE (0001ms, 79813ms total)
T3918 6543:519 JLINK_IsHalted()  returns FALSE (0001ms, 79813ms total)
T3918 6543:524 JLINK_IsHalted()  returns FALSE (0001ms, 79813ms total)
T3918 6543:526 JLINK_IsHalted()  returns FALSE (0001ms, 79813ms total)
T3918 6543:528 JLINK_IsHalted()  returns FALSE (0001ms, 79813ms total)
T3918 6543:531 JLINK_IsHalted()  returns FALSE (0001ms, 79813ms total)
T3918 6543:534 JLINK_IsHalted()  returns FALSE (0001ms, 79813ms total)
T3918 6543:537 JLINK_IsHalted()  returns FALSE (0001ms, 79813ms total)
T3918 6543:540 JLINK_IsHalted()  returns FALSE (0001ms, 79813ms total)
T3918 6543:543 JLINK_IsHalted()  returns FALSE (0001ms, 79813ms total)
T3918 6543:546 JLINK_IsHalted()  returns FALSE (0001ms, 79813ms total)
T3918 6543:549 JLINK_IsHalted()  returns FALSE (0001ms, 79813ms total)
T3918 6543:553 JLINK_IsHalted()  returns FALSE (0001ms, 79813ms total)
T3918 6543:556 JLINK_IsHalted()  returns FALSE (0001ms, 79813ms total)
T3918 6543:559 JLINK_IsHalted()  returns FALSE (0001ms, 79813ms total)
T3918 6543:562 JLINK_IsHalted()  returns FALSE (0001ms, 79813ms total)
T3918 6543:564 JLINK_IsHalted()  returns FALSE (0001ms, 79813ms total)
T3918 6543:567 JLINK_IsHalted()  returns FALSE (0001ms, 79813ms total)
T3918 6543:570 JLINK_IsHalted()  returns FALSE (0001ms, 79813ms total)
T3918 6543:573 JLINK_IsHalted()  returns TRUE (0011ms, 79823ms total)
T3918 6543:584 JLINK_ReadReg(R15 (PC))  returns 0x1FFFF000 (0000ms, 79812ms total)
T3918 6543:584 JLINK_ClrBPEx(BPHandle = 0x00000002)  returns 0x00 (0000ms, 79812ms total)
T3918 6543:584 JLINK_ReadReg(R0)  returns 0x00000000 (0000ms, 79812ms total)
T3918 6543:635 JLINK_WriteReg(R0, 0x00000001)  returns 0x00 (0000ms, 79812ms total)
T3918 6543:635 JLINK_WriteReg(R1, 0x00F42400)  returns 0x00 (0000ms, 79812ms total)
T3918 6543:635 JLINK_WriteReg(R2, 0x00000001)  returns 0x00 (0000ms, 79812ms total)
T3918 6543:635 JLINK_WriteReg(R3, 0x00000000)  returns 0x00 (0000ms, 79812ms total)
T3918 6543:635 JLINK_WriteReg(R4, 0x00000000)  returns 0x00 (0000ms, 79812ms total)
T3918 6543:635 JLINK_WriteReg(R5, 0x00000000)  returns 0x00 (0000ms, 79812ms total)
T3918 6543:635 JLINK_WriteReg(R6, 0x00000000)  returns 0x00 (0000ms, 79812ms total)
T3918 6543:635 JLINK_WriteReg(R7, 0x00000000)  returns 0x00 (0000ms, 79812ms total)
T3918 6543:635 JLINK_WriteReg(R8, 0x00000000)  returns 0x00 (0000ms, 79812ms total)
T3918 6543:635 JLINK_WriteReg(R9, 0x1FFFF1A8)  returns 0x00 (0000ms, 79812ms total)
T3918 6543:635 JLINK_WriteReg(R10, 0x00000000)  returns 0x00 (0000ms, 79812ms total)
T3918 6543:635 JLINK_WriteReg(R11, 0x00000000)  returns 0x00 (0001ms, 79813ms total)
T3918 6543:636 JLINK_WriteReg(R12, 0x00000000)  returns 0x00 (0000ms, 79813ms total)
T3918 6543:636 JLINK_WriteReg(R13 (SP), 0x20000000)  returns 0x00 (0000ms, 79813ms total)
T3918 6543:636 JLINK_WriteReg(R14, 0x1FFFF001)  returns 0x00 (0000ms, 79813ms total)
T3918 6543:636 JLINK_WriteReg(R15 (PC), 0x1FFFF068)  returns 0x00 (0000ms, 79813ms total)
T3918 6543:636 JLINK_WriteReg(XPSR, 0x01000000)  returns 0x00 (0000ms, 79813ms total)
T3918 6543:636 JLINK_WriteReg(MSP, 0x20000000)  returns 0x00 (0000ms, 79813ms total)
T3918 6543:636 JLINK_WriteReg(PSP, 0x20000000)  returns 0x00 (0000ms, 79813ms total)
T3918 6543:636 JLINK_WriteReg(CFBP, 0x00000000)  returns 0x00 (0000ms, 79813ms total)
T3918 6543:636 JLINK_SetBPEx(Addr = 0x1FFFF000, Type = 0xFFFFFFF2)  returns 0x00000003 (0000ms, 79813ms total)
T3918 6543:636 JLINK_Go() -- CPU_WriteMem(4 bytes @ 0xE0002000) -- CPU_ReadMem(4 bytes @ 0xE0001000) -- CPU_WriteMem(4 bytes @ 0xE0001000) (0009ms, 79822ms total)
T3918 6543:645 JLINK_IsHalted()  returns TRUE (0011ms, 79833ms total)
T3918 6543:656 JLINK_ReadReg(R15 (PC))  returns 0x1FFFF000 (0000ms, 79822ms total)
T3918 6543:656 JLINK_ClrBPEx(BPHandle = 0x00000003)  returns 0x00 (0000ms, 79822ms total)
T3918 6543:657 JLINK_ReadReg(R0)  returns 0x00000000 (0000ms, 79823ms total)
T3918 6543:662 JLINK_WriteMem(0x1FFFF000, 0x01AC Bytes, ...) - Data: 00 BE 0A E0 0D 78 2D 06 68 40 08 24 40 00 00 D3 ... -- CPU_WriteMem(428 bytes @ 0x1FFFF000)  returns 0x1AC (0020ms, 79843ms total)
T3918 6543:682 JLINK_WriteReg(R0, 0x00000000)  returns 0x00 (0000ms, 79843ms total)
T3918 6543:682 JLINK_WriteReg(R1, 0x00F42400)  returns 0x00 (0000ms, 79843ms total)
T3918 6543:682 JLINK_WriteReg(R2, 0x00000002)  returns 0x00 (0000ms, 79843ms total)
T3918 6543:682 JLINK_WriteReg(R3, 0x00000000)  returns 0x00 (0000ms, 79843ms total)
T3918 6543:682 JLINK_WriteReg(R4, 0x00000000)  returns 0x00 (0001ms, 79844ms total)
T3918 6543:683 JLINK_WriteReg(R5, 0x00000000)  returns 0x00 (0000ms, 79844ms total)
T3918 6543:683 JLINK_WriteReg(R6, 0x00000000)  returns 0x00 (0000ms, 79844ms total)
T3918 6543:683 JLINK_WriteReg(R7, 0x00000000)  returns 0x00 (0000ms, 79844ms total)
T3918 6543:683 JLINK_WriteReg(R8, 0x00000000)  returns 0x00 (0000ms, 79844ms total)
T3918 6543:683 JLINK_WriteReg(R9, 0x1FFFF1A8)  returns 0x00 (0000ms, 79844ms total)
T3918 6543:683 JLINK_WriteReg(R10, 0x00000000)  returns 0x00 (0000ms, 79844ms total)
T3918 6543:683 JLINK_WriteReg(R11, 0x00000000)  returns 0x00 (0000ms, 79844ms total)
T3918 6543:683 JLINK_WriteReg(R12, 0x00000000)  returns 0x00 (0000ms, 79844ms total)
T3918 6543:683 JLINK_WriteReg(R13 (SP), 0x20000000)  returns 0x00 (0000ms, 79844ms total)
T3918 6543:683 JLINK_WriteReg(R14, 0x1FFFF001)  returns 0x00 (0000ms, 79844ms total)
T3918 6543:683 JLINK_WriteReg(R15 (PC), 0x1FFFF038)  returns 0x00 (0000ms, 79844ms total)
T3918 6543:683 JLINK_WriteReg(XPSR, 0x01000000)  returns 0x00 (0000ms, 79844ms total)
T3918 6543:683 JLINK_WriteReg(MSP, 0x20000000)  returns 0x00 (0000ms, 79844ms total)
T3918 6543:683 JLINK_WriteReg(PSP, 0x20000000)  returns 0x00 (0000ms, 79844ms total)
T3918 6543:683 JLINK_WriteReg(CFBP, 0x00000000)  returns 0x00 (0000ms, 79844ms total)
T3918 6543:683 JLINK_SetBPEx(Addr = 0x1FFFF000, Type = 0xFFFFFFF2)  returns 0x00000004 (0000ms, 79844ms total)
T3918 6543:683 JLINK_Go() -- CPU_WriteMem(4 bytes @ 0xE0002000) -- CPU_ReadMem(4 bytes @ 0xE0001000) -- CPU_WriteMem(4 bytes @ 0xE0001000) (0008ms, 79852ms total)
T3918 6543:691 JLINK_IsHalted()  returns TRUE (0011ms, 79863ms total)
T3918 6543:702 JLINK_ReadReg(R15 (PC))  returns 0x1FFFF000 (0000ms, 79852ms total)
T3918 6543:702 JLINK_ClrBPEx(BPHandle = 0x00000004)  returns 0x00 (0000ms, 79852ms total)
T3918 6543:702 JLINK_ReadReg(R0)  returns 0x00000000 (0000ms, 79852ms total)
T3918 6543:703 JLINK_WriteMem(0x1FFFF1AC, 0x0100 Bytes, ...) - Data: E0 0A 00 20 D7 00 00 00 E3 00 00 00 E5 00 00 00 ... -- CPU_WriteMem(256 bytes @ 0x1FFFF1AC)  returns 0x100 (0013ms, 79865ms total)
T3918 6543:716 JLINK_WriteReg(R0, 0x00000000)  returns 0x00 (0000ms, 79865ms total)
T3918 6543:716 JLINK_WriteReg(R1, 0x00000100)  returns 0x00 (0000ms, 79865ms total)
T3918 6543:716 JLINK_WriteReg(R2, 0x1FFFF1AC)  returns 0x00 (0000ms, 79865ms total)
T3918 6543:716 JLINK_WriteReg(R3, 0x00000000)  returns 0x00 (0000ms, 79865ms total)
T3918 6543:716 JLINK_WriteReg(R4, 0x00000000)  returns 0x00 (0000ms, 79865ms total)
T3918 6543:716 JLINK_WriteReg(R5, 0x00000000)  returns 0x00 (0000ms, 79865ms total)
T3918 6543:716 JLINK_WriteReg(R6, 0x00000000)  returns 0x00 (0000ms, 79865ms total)
T3918 6543:716 JLINK_WriteReg(R7, 0x00000000)  returns 0x00 (0000ms, 79865ms total)
T3918 6543:716 JLINK_WriteReg(R8, 0x00000000)  returns 0x00 (0000ms, 79865ms total)
T3918 6543:716 JLINK_WriteReg(R9, 0x1FFFF1A8)  returns 0x00 (0000ms, 79865ms total)
T3918 6543:716 JLINK_WriteReg(R10, 0x00000000)  returns 0x00 (0000ms, 79865ms total)
T3918 6543:716 JLINK_WriteReg(R11, 0x00000000)  returns 0x00 (0000ms, 79865ms total)
T3918 6543:716 JLINK_WriteReg(R12, 0x00000000)  returns 0x00 (0000ms, 79865ms total)
T3918 6543:716 JLINK_WriteReg(R13 (SP), 0x20000000)  returns 0x00 (0000ms, 79865ms total)
T3918 6543:716 JLINK_WriteReg(R14, 0x1FFFF001)  returns 0x00 (0000ms, 79865ms total)
T3918 6543:716 JLINK_WriteReg(R15 (PC), 0x1FFFF118)  returns 0x00 (0000ms, 79865ms total)
T3918 6543:716 JLINK_WriteReg(XPSR, 0x01000000)  returns 0x00 (0000ms, 79865ms total)
T3918 6543:716 JLINK_WriteReg(MSP, 0x20000000)  returns 0x00 (0000ms, 79865ms total)
T3918 6543:716 JLINK_WriteReg(PSP, 0x20000000)  returns 0x00 (0000ms, 79865ms total)
T3918 6543:716 JLINK_WriteReg(CFBP, 0x00000000)  returns 0x00 (0000ms, 79865ms total)
T3918 6543:716 JLINK_SetBPEx(Addr = 0x1FFFF000, Type = 0xFFFFFFF2)  returns 0x00000005 (0000ms, 79865ms total)
T3918 6543:716 JLINK_Go() -- CPU_WriteMem(4 bytes @ 0xE0002000) -- CPU_ReadMem(4 bytes @ 0xE0001000) -- CPU_WriteMem(4 bytes @ 0xE0001000) (0008ms, 79873ms total)
T3918 6543:724 JLINK_IsHalted()  returns FALSE (0001ms, 79874ms total)
T3918 6543:734 JLINK_IsHalted()  returns FALSE (0000ms, 79873ms total)
T3918 6543:739 JLINK_IsHalted()  returns TRUE (0011ms, 79884ms total)
T3918 6543:750 JLINK_ReadReg(R15 (PC))  returns 0x1FFFF000 (0000ms, 79873ms total)
T3918 6543:750 JLINK_ClrBPEx(BPHandle = 0x00000005)  returns 0x00 (0000ms, 79873ms total)
T3918 6543:750 JLINK_ReadReg(R0)  returns 0x00000000 (0000ms, 79873ms total)
T3918 6543:751 JLINK_WriteMem(0x1FFFF1AC, 0x0100 Bytes, ...) - Data: 01 46 00 20 20 22 01 24 09 E0 0D 46 D5 40 9D 42 ... -- CPU_WriteMem(256 bytes @ 0x1FFFF1AC)  returns 0x100 (0013ms, 79886ms total)
T3918 6543:764 JLINK_WriteReg(R0, 0x00000100)  returns 0x00 (0000ms, 79886ms total)
T3918 6543:764 JLINK_WriteReg(R1, 0x00000100)  returns 0x00 (0000ms, 79886ms total)
T3918 6543:764 JLINK_WriteReg(R2, 0x1FFFF1AC)  returns 0x00 (0000ms, 79886ms total)
T3918 6543:764 JLINK_WriteReg(R3, 0x00000000)  returns 0x00 (0000ms, 79886ms total)
T3918 6543:764 JLINK_WriteReg(R4, 0x00000000)  returns 0x00 (0000ms, 79886ms total)
T3918 6543:764 JLINK_WriteReg(R5, 0x00000000)  returns 0x00 (0000ms, 79886ms total)
T3918 6543:764 JLINK_WriteReg(R6, 0x00000000)  returns 0x00 (0000ms, 79886ms total)
T3918 6543:764 JLINK_WriteReg(R7, 0x00000000)  returns 0x00 (0000ms, 79886ms total)
T3918 6543:764 JLINK_WriteReg(R8, 0x00000000)  returns 0x00 (0000ms, 79886ms total)
T3918 6543:764 JLINK_WriteReg(R9, 0x1FFFF1A8)  returns 0x00 (0000ms, 79886ms total)
T3918 6543:764 JLINK_WriteReg(R10, 0x00000000)  returns 0x00 (0000ms, 79886ms total)
T3918 6543:764 JLINK_WriteReg(R11, 0x00000000)  returns 0x00 (0000ms, 79886ms total)
T3918 6543:764 JLINK_WriteReg(R12, 0x00000000)  returns 0x00 (0000ms, 79886ms total)
T3918 6543:764 JLINK_WriteReg(R13 (SP), 0x20000000)  returns 0x00 (0000ms, 79886ms total)
T3918 6543:764 JLINK_WriteReg(R14, 0x1FFFF001)  returns 0x00 (0000ms, 79886ms total)
T3918 6543:764 JLINK_WriteReg(R15 (PC), 0x1FFFF118)  returns 0x00 (0000ms, 79886ms total)
T3918 6543:764 JLINK_WriteReg(XPSR, 0x01000000)  returns 0x00 (0000ms, 79886ms total)
T3918 6543:764 JLINK_WriteReg(MSP, 0x20000000)  returns 0x00 (0000ms, 79886ms total)
T3918 6543:764 JLINK_WriteReg(PSP, 0x20000000)  returns 0x00 (0000ms, 79886ms total)
T3918 6543:764 JLINK_WriteReg(CFBP, 0x00000000)  returns 0x00 (0000ms, 79886ms total)
T3918 6543:764 JLINK_SetBPEx(Addr = 0x1FFFF000, Type = 0xFFFFFFF2)  returns 0x00000006 (0000ms, 79886ms total)
T3918 6543:764 JLINK_Go() -- CPU_WriteMem(4 bytes @ 0xE0002000) -- CPU_ReadMem(4 bytes @ 0xE0001000) -- CPU_WriteMem(4 bytes @ 0xE0001000) (0009ms, 79895ms total)
T3918 6543:773 JLINK_IsHalted()  returns FALSE (0001ms, 79896ms total)
T3918 6543:776 JLINK_IsHalted()  returns FALSE (0001ms, 79896ms total)
T3918 6543:778 JLINK_IsHalted()  returns FALSE (0001ms, 79896ms total)
T3918 6543:781 JLINK_IsHalted()  returns FALSE (0001ms, 79896ms total)
T3918 6543:788 JLINK_IsHalted()  returns TRUE (0011ms, 79906ms total)
T3918 6543:799 JLINK_ReadReg(R15 (PC))  returns 0x1FFFF000 (0000ms, 79895ms total)
T3918 6543:799 JLINK_ClrBPEx(BPHandle = 0x00000006)  returns 0x00 (0000ms, 79895ms total)
T3918 6543:799 JLINK_ReadReg(R0)  returns 0x00000000 (0000ms, 79895ms total)
T3918 6543:800 JLINK_WriteMem(0x1FFFF1AC, 0x0100 Bytes, ...) - Data: 08 40 00 28 0E D1 39 48 00 78 FF F7 B1 FF 36 48 ... -- CPU_WriteMem(256 bytes @ 0x1FFFF1AC)  returns 0x100 (0013ms, 79908ms total)
T3918 6543:813 JLINK_WriteReg(R0, 0x00000200)  returns 0x00 (0000ms, 79908ms total)
T3918 6543:813 JLINK_WriteReg(R1, 0x00000100)  returns 0x00 (0000ms, 79908ms total)
T3918 6543:813 JLINK_WriteReg(R2, 0x1FFFF1AC)  returns 0x00 (0000ms, 79908ms total)
T3918 6543:813 JLINK_WriteReg(R3, 0x00000000)  returns 0x00 (0000ms, 79908ms total)
T3918 6543:813 JLINK_WriteReg(R4, 0x00000000)  returns 0x00 (0000ms, 79908ms total)
T3918 6543:813 JLINK_WriteReg(R5, 0x00000000)  returns 0x00 (0000ms, 79908ms total)
T3918 6543:813 JLINK_WriteReg(R6, 0x00000000)  returns 0x00 (0000ms, 79908ms total)
T3918 6543:813 JLINK_WriteReg(R7, 0x00000000)  returns 0x00 (0000ms, 79908ms total)
T3918 6543:813 JLINK_WriteReg(R8, 0x00000000)  returns 0x00 (0000ms, 79908ms total)
T3918 6543:813 JLINK_WriteReg(R9, 0x1FFFF1A8)  returns 0x00 (0000ms, 79908ms total)
T3918 6543:813 JLINK_WriteReg(R10, 0x00000000)  returns 0x00 (0000ms, 79908ms total)
T3918 6543:813 JLINK_WriteReg(R11, 0x00000000)  returns 0x00 (0000ms, 79908ms total)
T3918 6543:813 JLINK_WriteReg(R12, 0x00000000)  returns 0x00 (0000ms, 79908ms total)
T3918 6543:813 JLINK_WriteReg(R13 (SP), 0x20000000)  returns 0x00 (0000ms, 79908ms total)
T3918 6543:813 JLINK_WriteReg(R14, 0x1FFFF001)  returns 0x00 (0000ms, 79908ms total)
T3918 6543:813 JLINK_WriteReg(R15 (PC), 0x1FFFF118)  returns 0x00 (0000ms, 79908ms total)
T3918 6543:813 JLINK_WriteReg(XPSR, 0x01000000)  returns 0x00 (0000ms, 79908ms total)
T3918 6543:813 JLINK_WriteReg(MSP, 0x20000000)  returns 0x00 (0000ms, 79908ms total)
T3918 6543:813 JLINK_WriteReg(PSP, 0x20000000)  returns 0x00 (0000ms, 79908ms total)
T3918 6543:813 JLINK_WriteReg(CFBP, 0x00000000)  returns 0x00 (0000ms, 79908ms total)
T3918 6543:813 JLINK_SetBPEx(Addr = 0x1FFFF000, Type = 0xFFFFFFF2)  returns 0x00000007 (0000ms, 79908ms total)
T3918 6543:813 JLINK_Go() -- CPU_WriteMem(4 bytes @ 0xE0002000) -- CPU_ReadMem(4 bytes @ 0xE0001000) -- CPU_WriteMem(4 bytes @ 0xE0001000) (0009ms, 79917ms total)
T3918 6543:822 JLINK_IsHalted()  returns FALSE (0001ms, 79918ms total)
T3918 6543:825 JLINK_IsHalted()  returns FALSE (0001ms, 79918ms total)
T3918 6543:828 JLINK_IsHalted()  returns FALSE (0001ms, 79918ms total)
T3918 6543:830 JLINK_IsHalted()  returns FALSE (0001ms, 79918ms total)
T3918 6543:833 JLINK_IsHalted()  returns TRUE (0011ms, 79928ms total)
T3918 6543:844 JLINK_ReadReg(R15 (PC))  returns 0x1FFFF000 (0000ms, 79917ms total)
T3918 6543:844 JLINK_ClrBPEx(BPHandle = 0x00000007)  returns 0x00 (0000ms, 79917ms total)
T3918 6543:844 JLINK_ReadReg(R0)  returns 0x00000000 (0000ms, 79917ms total)
T3918 6543:844 JLINK_WriteMem(0x1FFFF1AC, 0x0100 Bytes, ...) - Data: 80 21 88 43 2C 49 48 61 2C 48 80 68 80 21 08 43 ... -- CPU_WriteMem(256 bytes @ 0x1FFFF1AC)  returns 0x100 (0013ms, 79930ms total)
T3918 6543:857 JLINK_WriteReg(R0, 0x00000300)  returns 0x00 (0000ms, 79930ms total)
T3918 6543:857 JLINK_WriteReg(R1, 0x00000100)  returns 0x00 (0000ms, 79930ms total)
T3918 6543:857 JLINK_WriteReg(R2, 0x1FFFF1AC)  returns 0x00 (0000ms, 79930ms total)
T3918 6543:857 JLINK_WriteReg(R3, 0x00000000)  returns 0x00 (0000ms, 79930ms total)
T3918 6543:857 JLINK_WriteReg(R4, 0x00000000)  returns 0x00 (0000ms, 79930ms total)
T3918 6543:857 JLINK_WriteReg(R5, 0x00000000)  returns 0x00 (0000ms, 79930ms total)
T3918 6543:857 JLINK_WriteReg(R6, 0x00000000)  returns 0x00 (0000ms, 79930ms total)
T3918 6543:857 JLINK_WriteReg(R7, 0x00000000)  returns 0x00 (0000ms, 79930ms total)
T3918 6543:857 JLINK_WriteReg(R8, 0x00000000)  returns 0x00 (0000ms, 79930ms total)
T3918 6543:857 JLINK_WriteReg(R9, 0x1FFFF1A8)  returns 0x00 (0000ms, 79930ms total)
T3918 6543:857 JLINK_WriteReg(R10, 0x00000000)  returns 0x00 (0000ms, 79930ms total)
T3918 6543:857 JLINK_WriteReg(R11, 0x00000000)  returns 0x00 (0000ms, 79930ms total)
T3918 6543:857 JLINK_WriteReg(R12, 0x00000000)  returns 0x00 (0000ms, 79930ms total)
T3918 6543:857 JLINK_WriteReg(R13 (SP), 0x20000000)  returns 0x00 (0000ms, 79930ms total)
T3918 6543:858 JLINK_WriteReg(R14, 0x1FFFF001)  returns 0x00 (0000ms, 79931ms total)
T3918 6543:858 JLINK_WriteReg(R15 (PC), 0x1FFFF118)  returns 0x00 (0000ms, 79931ms total)
T3918 6543:858 JLINK_WriteReg(XPSR, 0x01000000)  returns 0x00 (0000ms, 79931ms total)
T3918 6543:858 JLINK_WriteReg(MSP, 0x20000000)  returns 0x00 (0000ms, 79931ms total)
T3918 6543:858 JLINK_WriteReg(PSP, 0x20000000)  returns 0x00 (0000ms, 79931ms total)
T3918 6543:858 JLINK_WriteReg(CFBP, 0x00000000)  returns 0x00 (0000ms, 79931ms total)
T3918 6543:858 JLINK_SetBPEx(Addr = 0x1FFFF000, Type = 0xFFFFFFF2)  returns 0x00000008 (0000ms, 79931ms total)
T3918 6543:858 JLINK_Go() -- CPU_WriteMem(4 bytes @ 0xE0002000) -- CPU_ReadMem(4 bytes @ 0xE0001000) -- CPU_WriteMem(4 bytes @ 0xE0001000) (0009ms, 79940ms total)
T3918 6543:867 JLINK_IsHalted()  returns FALSE (0001ms, 79941ms total)
T3918 6543:877 JLINK_IsHalted()  returns TRUE (0011ms, 79951ms total)
T3918 6543:888 JLINK_ReadReg(R15 (PC))  returns 0x1FFFF000 (0000ms, 79940ms total)
T3918 6543:888 JLINK_ClrBPEx(BPHandle = 0x00000008)  returns 0x00 (0001ms, 79941ms total)
T3918 6543:889 JLINK_ReadReg(R0)  returns 0x00000000 (0000ms, 79941ms total)
T3918 6543:889 JLINK_WriteMem(0x1FFFF1AC, 0x0100 Bytes, ...) - Data: FF FF FF FF FF FF FF FF FF FF FF FF FF FF FE FE ... -- CPU_WriteMem(256 bytes @ 0x1FFFF1AC)  returns 0x100 (0013ms, 79954ms total)
T3918 6543:902 JLINK_WriteReg(R0, 0x00000400)  returns 0x00 (0000ms, 79954ms total)
T3918 6543:902 JLINK_WriteReg(R1, 0x00000100)  returns 0x00 (0000ms, 79954ms total)
T3918 6543:902 JLINK_WriteReg(R2, 0x1FFFF1AC)  returns 0x00 (0000ms, 79954ms total)
T3918 6543:902 JLINK_WriteReg(R3, 0x00000000)  returns 0x00 (0000ms, 79954ms total)
T3918 6543:902 JLINK_WriteReg(R4, 0x00000000)  returns 0x00 (0000ms, 79954ms total)
T3918 6543:902 JLINK_WriteReg(R5, 0x00000000)  returns 0x00 (0000ms, 79954ms total)
T3918 6543:902 JLINK_WriteReg(R6, 0x00000000)  returns 0x00 (0000ms, 79954ms total)
T3918 6543:902 JLINK_WriteReg(R7, 0x00000000)  returns 0x00 (0000ms, 79954ms total)
T3918 6543:902 JLINK_WriteReg(R8, 0x00000000)  returns 0x00 (0000ms, 79954ms total)
T3918 6543:902 JLINK_WriteReg(R9, 0x1FFFF1A8)  returns 0x00 (0000ms, 79954ms total)
T3918 6543:902 JLINK_WriteReg(R10, 0x00000000)  returns 0x00 (0000ms, 79954ms total)
T3918 6543:902 JLINK_WriteReg(R11, 0x00000000)  returns 0x00 (0000ms, 79954ms total)
T3918 6543:902 JLINK_WriteReg(R12, 0x00000000)  returns 0x00 (0000ms, 79954ms total)
T3918 6543:902 JLINK_WriteReg(R13 (SP), 0x20000000)  returns 0x00 (0000ms, 79954ms total)
T3918 6543:902 JLINK_WriteReg(R14, 0x1FFFF001)  returns 0x00 (0000ms, 79954ms total)
T3918 6543:902 JLINK_WriteReg(R15 (PC), 0x1FFFF118)  returns 0x00 (0000ms, 79954ms total)
T3918 6543:902 JLINK_WriteReg(XPSR, 0x01000000)  returns 0x00 (0000ms, 79954ms total)
T3918 6543:902 JLINK_WriteReg(MSP, 0x20000000)  returns 0x00 (0000ms, 79954ms total)
T3918 6543:902 JLINK_WriteReg(PSP, 0x20000000)  returns 0x00 (0000ms, 79954ms total)
T3918 6543:902 JLINK_WriteReg(CFBP, 0x00000000)  returns 0x00 (0000ms, 79954ms total)
T3918 6543:902 JLINK_SetBPEx(Addr = 0x1FFFF000, Type = 0xFFFFFFF2)  returns 0x00000009 (0000ms, 79954ms total)
T3918 6543:902 JLINK_Go() -- CPU_WriteMem(4 bytes @ 0xE0002000) -- CPU_ReadMem(4 bytes @ 0xE0001000) -- CPU_WriteMem(4 bytes @ 0xE0001000) (0009ms, 79963ms total)
T3918 6543:911 JLINK_IsHalted()  returns FALSE (0002ms, 79965ms total)
T3918 6543:914 JLINK_IsHalted()  returns FALSE (0001ms, 79964ms total)
T3918 6543:917 JLINK_IsHalted()  returns FALSE (0001ms, 79964ms total)
T3918 6543:920 JLINK_IsHalted()  returns FALSE (0001ms, 79964ms total)
T3918 6543:923 JLINK_IsHalted()  returns TRUE (0011ms, 79974ms total)
T3918 6543:934 JLINK_ReadReg(R15 (PC))  returns 0x1FFFF000 (0000ms, 79963ms total)
T3918 6543:934 JLINK_ClrBPEx(BPHandle = 0x00000009)  returns 0x00 (0000ms, 79963ms total)
T3918 6543:934 JLINK_ReadReg(R0)  returns 0x00000000 (0000ms, 79963ms total)
T3918 6543:935 JLINK_WriteMem(0x1FFFF1AC, 0x0100 Bytes, ...) - Data: 08 46 40 68 01 21 C9 06 08 43 5C 49 48 60 08 46 ... -- CPU_WriteMem(256 bytes @ 0x1FFFF1AC)  returns 0x100 (0013ms, 79976ms total)
T3918 6543:948 JLINK_WriteReg(R0, 0x00000500)  returns 0x00 (0000ms, 79976ms total)
T3918 6543:948 JLINK_WriteReg(R1, 0x00000100)  returns 0x00 (0000ms, 79976ms total)
T3918 6543:948 JLINK_WriteReg(R2, 0x1FFFF1AC)  returns 0x00 (0000ms, 79976ms total)
T3918 6543:948 JLINK_WriteReg(R3, 0x00000000)  returns 0x00 (0000ms, 79976ms total)
T3918 6543:948 JLINK_WriteReg(R4, 0x00000000)  returns 0x00 (0000ms, 79976ms total)
T3918 6543:948 JLINK_WriteReg(R5, 0x00000000)  returns 0x00 (0000ms, 79976ms total)
T3918 6543:948 JLINK_WriteReg(R6, 0x00000000)  returns 0x00 (0000ms, 79976ms total)
T3918 6543:948 JLINK_WriteReg(R7, 0x00000000)  returns 0x00 (0000ms, 79976ms total)
T3918 6543:948 JLINK_WriteReg(R8, 0x00000000)  returns 0x00 (0000ms, 79976ms total)
T3918 6543:948 JLINK_WriteReg(R9, 0x1FFFF1A8)  returns 0x00 (0000ms, 79976ms total)
T3918 6543:948 JLINK_WriteReg(R10, 0x00000000)  returns 0x00 (0000ms, 79976ms total)
T3918 6543:948 JLINK_WriteReg(R11, 0x00000000)  returns 0x00 (0000ms, 79976ms total)
T3918 6543:948 JLINK_WriteReg(R12, 0x00000000)  returns 0x00 (0000ms, 79976ms total)
T3918 6543:948 JLINK_WriteReg(R13 (SP), 0x20000000)  returns 0x00 (0000ms, 79976ms total)
T3918 6543:948 JLINK_WriteReg(R14, 0x1FFFF001)  returns 0x00 (0000ms, 79976ms total)
T3918 6543:948 JLINK_WriteReg(R15 (PC), 0x1FFFF118)  returns 0x00 (0000ms, 79976ms total)
T3918 6543:948 JLINK_WriteReg(XPSR, 0x01000000)  returns 0x00 (0000ms, 79976ms total)
T3918 6543:948 JLINK_WriteReg(MSP, 0x20000000)  returns 0x00 (0000ms, 79976ms total)
T3918 6543:948 JLINK_WriteReg(PSP, 0x20000000)  returns 0x00 (0000ms, 79976ms total)
T3918 6543:948 JLINK_WriteReg(CFBP, 0x00000000)  returns 0x00 (0000ms, 79976ms total)
T3918 6543:948 JLINK_SetBPEx(Addr = 0x1FFFF000, Type = 0xFFFFFFF2)  returns 0x0000000A (0000ms, 79976ms total)
T3918 6543:948 JLINK_Go() -- CPU_WriteMem(4 bytes @ 0xE0002000) -- CPU_ReadMem(4 bytes @ 0xE0001000) -- CPU_WriteMem(4 bytes @ 0xE0001000) (0009ms, 79985ms total)
T3918 6543:957 JLINK_IsHalted()  returns FALSE (0001ms, 79986ms total)
T3918 6543:964 JLINK_IsHalted()  returns FALSE (0001ms, 79986ms total)
T3918 6543:966 JLINK_IsHalted()  returns FALSE (0001ms, 79986ms total)
T3918 6543:969 JLINK_IsHalted()  returns TRUE (0011ms, 79996ms total)
T3918 6543:980 JLINK_ReadReg(R15 (PC))  returns 0x1FFFF000 (0000ms, 79985ms total)
T3918 6543:980 JLINK_ClrBPEx(BPHandle = 0x0000000A)  returns 0x00 (0000ms, 79985ms total)
T3918 6543:980 JLINK_ReadReg(R0)  returns 0x00000000 (0000ms, 79985ms total)
T3918 6543:980 JLINK_WriteMem(0x1FFFF1AC, 0x0100 Bytes, ...) - Data: 00 F0 00 F9 00 21 02 20 00 F0 FC F8 00 21 A1 20 ... -- CPU_WriteMem(256 bytes @ 0x1FFFF1AC)  returns 0x100 (0013ms, 79998ms total)
T3918 6543:993 JLINK_WriteReg(R0, 0x00000600)  returns 0x00 (0000ms, 79998ms total)
T3918 6543:993 JLINK_WriteReg(R1, 0x00000100)  returns 0x00 (0000ms, 79998ms total)
T3918 6543:993 JLINK_WriteReg(R2, 0x1FFFF1AC)  returns 0x00 (0000ms, 79998ms total)
T3918 6543:993 JLINK_WriteReg(R3, 0x00000000)  returns 0x00 (0000ms, 79998ms total)
T3918 6543:993 JLINK_WriteReg(R4, 0x00000000)  returns 0x00 (0000ms, 79998ms total)
T3918 6543:993 JLINK_WriteReg(R5, 0x00000000)  returns 0x00 (0000ms, 79998ms total)
T3918 6543:993 JLINK_WriteReg(R6, 0x00000000)  returns 0x00 (0000ms, 79998ms total)
T3918 6543:993 JLINK_WriteReg(R7, 0x00000000)  returns 0x00 (0000ms, 79998ms total)
T3918 6543:993 JLINK_WriteReg(R8, 0x00000000)  returns 0x00 (0000ms, 79998ms total)
T3918 6543:993 JLINK_WriteReg(R9, 0x1FFFF1A8)  returns 0x00 (0000ms, 79998ms total)
T3918 6543:993 JLINK_WriteReg(R10, 0x00000000)  returns 0x00 (0000ms, 79998ms total)
T3918 6543:993 JLINK_WriteReg(R11, 0x00000000)  returns 0x00 (0000ms, 79998ms total)
T3918 6543:993 JLINK_WriteReg(R12, 0x00000000)  returns 0x00 (0000ms, 79998ms total)
T3918 6543:993 JLINK_WriteReg(R13 (SP), 0x20000000)  returns 0x00 (0000ms, 79998ms total)
T3918 6543:993 JLINK_WriteReg(R14, 0x1FFFF001)  returns 0x00 (0000ms, 79998ms total)
T3918 6543:993 JLINK_WriteReg(R15 (PC), 0x1FFFF118)  returns 0x00 (0000ms, 79998ms total)
T3918 6543:993 JLINK_WriteReg(XPSR, 0x01000000)  returns 0x00 (0000ms, 79998ms total)
T3918 6543:994 JLINK_WriteReg(MSP, 0x20000000)  returns 0x00 (0000ms, 79998ms total)
T3918 6543:994 JLINK_WriteReg(PSP, 0x20000000)  returns 0x00 (0000ms, 79998ms total)
T3918 6543:994 JLINK_WriteReg(CFBP, 0x00000000)  returns 0x00 (0000ms, 79998ms total)
T3918 6543:994 JLINK_SetBPEx(Addr = 0x1FFFF000, Type = 0xFFFFFFF2)  returns 0x0000000B (0000ms, 79998ms total)
T3918 6543:994 JLINK_Go() -- CPU_WriteMem(4 bytes @ 0xE0002000) -- CPU_ReadMem(4 bytes @ 0xE0001000) -- CPU_WriteMem(4 bytes @ 0xE0001000) (0008ms, 80006ms total)
T3918 6544:002 JLINK_IsHalted()  returns FALSE (0002ms, 80008ms total)
T3918 6544:011 JLINK_IsHalted()  returns FALSE (0001ms, 80007ms total)
T3918 6544:014 JLINK_IsHalted()  returns TRUE (0012ms, 80018ms total)
T3918 6544:026 JLINK_ReadReg(R15 (PC))  returns 0x1FFFF000 (0000ms, 80006ms total)
T3918 6544:026 JLINK_ClrBPEx(BPHandle = 0x0000000B)  returns 0x00 (0000ms, 80006ms total)
T3918 6544:026 JLINK_ReadReg(R0)  returns 0x00000000 (0000ms, 80006ms total)
T3918 6544:027 JLINK_WriteMem(0x1FFFF1AC, 0x0100 Bytes, ...) - Data: 7F 10 7B 43 DB B2 01 93 28 46 20 38 C5 B2 00 27 ... -- CPU_WriteMem(256 bytes @ 0x1FFFF1AC)  returns 0x100 (0013ms, 80019ms total)
T3918 6544:040 JLINK_WriteReg(R0, 0x00000700)  returns 0x00 (0000ms, 80019ms total)
T3918 6544:040 JLINK_WriteReg(R1, 0x00000100)  returns 0x00 (0000ms, 80019ms total)
T3918 6544:040 JLINK_WriteReg(R2, 0x1FFFF1AC)  returns 0x00 (0000ms, 80019ms total)
T3918 6544:040 JLINK_WriteReg(R3, 0x00000000)  returns 0x00 (0000ms, 80019ms total)
T3918 6544:040 JLINK_WriteReg(R4, 0x00000000)  returns 0x00 (0000ms, 80019ms total)
T3918 6544:040 JLINK_WriteReg(R5, 0x00000000)  returns 0x00 (0000ms, 80019ms total)
T3918 6544:040 JLINK_WriteReg(R6, 0x00000000)  returns 0x00 (0000ms, 80019ms total)
T3918 6544:040 JLINK_WriteReg(R7, 0x00000000)  returns 0x00 (0000ms, 80019ms total)
T3918 6544:040 JLINK_WriteReg(R8, 0x00000000)  returns 0x00 (0000ms, 80019ms total)
T3918 6544:040 JLINK_WriteReg(R9, 0x1FFFF1A8)  returns 0x00 (0000ms, 80019ms total)
T3918 6544:040 JLINK_WriteReg(R10, 0x00000000)  returns 0x00 (0000ms, 80019ms total)
T3918 6544:040 JLINK_WriteReg(R11, 0x00000000)  returns 0x00 (0000ms, 80019ms total)
T3918 6544:040 JLINK_WriteReg(R12, 0x00000000)  returns 0x00 (0000ms, 80019ms total)
T3918 6544:040 JLINK_WriteReg(R13 (SP), 0x20000000)  returns 0x00 (0000ms, 80019ms total)
T3918 6544:040 JLINK_WriteReg(R14, 0x1FFFF001)  returns 0x00 (0000ms, 80019ms total)
T3918 6544:040 JLINK_WriteReg(R15 (PC), 0x1FFFF118)  returns 0x00 (0000ms, 80019ms total)
T3918 6544:040 JLINK_WriteReg(XPSR, 0x01000000)  returns 0x00 (0000ms, 80019ms total)
T3918 6544:040 JLINK_WriteReg(MSP, 0x20000000)  returns 0x00 (0000ms, 80019ms total)
T3918 6544:040 JLINK_WriteReg(PSP, 0x20000000)  returns 0x00 (0000ms, 80019ms total)
T3918 6544:040 JLINK_WriteReg(CFBP, 0x00000000)  returns 0x00 (0000ms, 80019ms total)
T3918 6544:040 JLINK_SetBPEx(Addr = 0x1FFFF000, Type = 0xFFFFFFF2)  returns 0x0000000C (0000ms, 80019ms total)
T3918 6544:040 JLINK_Go() -- CPU_WriteMem(4 bytes @ 0xE0002000) -- CPU_ReadMem(4 bytes @ 0xE0001000) -- CPU_WriteMem(4 bytes @ 0xE0001000) (0009ms, 80028ms total)
T3918 6544:049 JLINK_IsHalted()  returns FALSE (0001ms, 80029ms total)
T3918 6544:053 JLINK_IsHalted()  returns FALSE (0001ms, 80029ms total)
T3918 6544:056 JLINK_IsHalted()  returns FALSE (0001ms, 80029ms total)
T3918 6544:058 JLINK_IsHalted()  returns FALSE (0001ms, 80029ms total)
T3918 6544:061 JLINK_IsHalted()  returns TRUE (0011ms, 80039ms total)
T3918 6544:072 JLINK_ReadReg(R15 (PC))  returns 0x1FFFF000 (0000ms, 80028ms total)
T3918 6544:072 JLINK_ClrBPEx(BPHandle = 0x0000000C)  returns 0x00 (0000ms, 80028ms total)
T3918 6544:072 JLINK_ReadReg(R0)  returns 0x00000000 (0000ms, 80028ms total)
T3918 6544:073 JLINK_WriteMem(0x1FFFF1AC, 0x0100 Bytes, ...) - Data: F0 BD 00 00 10 B5 00 29 02 D0 01 29 10 D1 07 E0 ... -- CPU_WriteMem(256 bytes @ 0x1FFFF1AC)  returns 0x100 (0013ms, 80041ms total)
T3918 6544:086 JLINK_WriteReg(R0, 0x00000800)  returns 0x00 (0000ms, 80041ms total)
T3918 6544:086 JLINK_WriteReg(R1, 0x00000100)  returns 0x00 (0000ms, 80041ms total)
T3918 6544:086 JLINK_WriteReg(R2, 0x1FFFF1AC)  returns 0x00 (0000ms, 80041ms total)
T3918 6544:086 JLINK_WriteReg(R3, 0x00000000)  returns 0x00 (0000ms, 80041ms total)
T3918 6544:086 JLINK_WriteReg(R4, 0x00000000)  returns 0x00 (0000ms, 80041ms total)
T3918 6544:086 JLINK_WriteReg(R5, 0x00000000)  returns 0x00 (0000ms, 80041ms total)
T3918 6544:086 JLINK_WriteReg(R6, 0x00000000)  returns 0x00 (0000ms, 80041ms total)
T3918 6544:086 JLINK_WriteReg(R7, 0x00000000)  returns 0x00 (0000ms, 80041ms total)
T3918 6544:086 JLINK_WriteReg(R8, 0x00000000)  returns 0x00 (0000ms, 80041ms total)
T3918 6544:086 JLINK_WriteReg(R9, 0x1FFFF1A8)  returns 0x00 (0000ms, 80041ms total)
T3918 6544:086 JLINK_WriteReg(R10, 0x00000000)  returns 0x00 (0000ms, 80041ms total)
T3918 6544:086 JLINK_WriteReg(R11, 0x00000000)  returns 0x00 (0000ms, 80041ms total)
T3918 6544:086 JLINK_WriteReg(R12, 0x00000000)  returns 0x00 (0000ms, 80041ms total)
T3918 6544:086 JLINK_WriteReg(R13 (SP), 0x20000000)  returns 0x00 (0000ms, 80041ms total)
T3918 6544:086 JLINK_WriteReg(R14, 0x1FFFF001)  returns 0x00 (0000ms, 80041ms total)
T3918 6544:086 JLINK_WriteReg(R15 (PC), 0x1FFFF118)  returns 0x00 (0000ms, 80041ms total)
T3918 6544:086 JLINK_WriteReg(XPSR, 0x01000000)  returns 0x00 (0000ms, 80041ms total)
T3918 6544:086 JLINK_WriteReg(MSP, 0x20000000)  returns 0x00 (0000ms, 80041ms total)
T3918 6544:086 JLINK_WriteReg(PSP, 0x20000000)  returns 0x00 (0000ms, 80041ms total)
T3918 6544:086 JLINK_WriteReg(CFBP, 0x00000000)  returns 0x00 (0000ms, 80041ms total)
T3918 6544:086 JLINK_SetBPEx(Addr = 0x1FFFF000, Type = 0xFFFFFFF2)  returns 0x0000000D (0000ms, 80041ms total)
T3918 6544:086 JLINK_Go() -- CPU_WriteMem(4 bytes @ 0xE0002000) -- CPU_ReadMem(4 bytes @ 0xE0001000) -- CPU_WriteMem(4 bytes @ 0xE0001000) (0009ms, 80050ms total)
T3918 6544:095 JLINK_IsHalted()  returns FALSE (0001ms, 80051ms total)
T3918 6544:100 JLINK_IsHalted()  returns FALSE (0001ms, 80051ms total)
T3918 6544:103 JLINK_IsHalted()  returns FALSE (0001ms, 80051ms total)
T3918 6544:105 JLINK_IsHalted()  returns TRUE (0011ms, 80061ms total)
T3918 6544:116 JLINK_ReadReg(R15 (PC))  returns 0x1FFFF000 (0000ms, 80050ms total)
T3918 6544:116 JLINK_ClrBPEx(BPHandle = 0x0000000D)  returns 0x00 (0000ms, 80050ms total)
T3918 6544:116 JLINK_ReadReg(R0)  returns 0x00000000 (0000ms, 80050ms total)
T3918 6544:117 JLINK_WriteMem(0x1FFFF1AC, 0x0100 Bytes, ...) - Data: 08 70 04 E0 16 48 00 78 40 1E 15 49 08 70 0E E0 ... -- CPU_WriteMem(256 bytes @ 0x1FFFF1AC)  returns 0x100 (0013ms, 80063ms total)
T3918 6544:130 JLINK_WriteReg(R0, 0x00000900)  returns 0x00 (0000ms, 80063ms total)
T3918 6544:130 JLINK_WriteReg(R1, 0x00000100)  returns 0x00 (0000ms, 80063ms total)
T3918 6544:130 JLINK_WriteReg(R2, 0x1FFFF1AC)  returns 0x00 (0000ms, 80063ms total)
T3918 6544:130 JLINK_WriteReg(R3, 0x00000000)  returns 0x00 (0000ms, 80063ms total)
T3918 6544:130 JLINK_WriteReg(R4, 0x00000000)  returns 0x00 (0000ms, 80063ms total)
T3918 6544:130 JLINK_WriteReg(R5, 0x00000000)  returns 0x00 (0000ms, 80063ms total)
T3918 6544:130 JLINK_WriteReg(R6, 0x00000000)  returns 0x00 (0000ms, 80063ms total)
T3918 6544:130 JLINK_WriteReg(R7, 0x00000000)  returns 0x00 (0000ms, 80063ms total)
T3918 6544:130 JLINK_WriteReg(R8, 0x00000000)  returns 0x00 (0000ms, 80063ms total)
T3918 6544:130 JLINK_WriteReg(R9, 0x1FFFF1A8)  returns 0x00 (0000ms, 80063ms total)
T3918 6544:130 JLINK_WriteReg(R10, 0x00000000)  returns 0x00 (0000ms, 80063ms total)
T3918 6544:130 JLINK_WriteReg(R11, 0x00000000)  returns 0x00 (0000ms, 80063ms total)
T3918 6544:130 JLINK_WriteReg(R12, 0x00000000)  returns 0x00 (0000ms, 80063ms total)
T3918 6544:130 JLINK_WriteReg(R13 (SP), 0x20000000)  returns 0x00 (0000ms, 80063ms total)
T3918 6544:130 JLINK_WriteReg(R14, 0x1FFFF001)  returns 0x00 (0000ms, 80063ms total)
T3918 6544:130 JLINK_WriteReg(R15 (PC), 0x1FFFF118)  returns 0x00 (0000ms, 80063ms total)
T3918 6544:130 JLINK_WriteReg(XPSR, 0x01000000)  returns 0x00 (0000ms, 80063ms total)
T3918 6544:130 JLINK_WriteReg(MSP, 0x20000000)  returns 0x00 (0000ms, 80063ms total)
T3918 6544:130 JLINK_WriteReg(PSP, 0x20000000)  returns 0x00 (0000ms, 80063ms total)
T3918 6544:130 JLINK_WriteReg(CFBP, 0x00000000)  returns 0x00 (0000ms, 80063ms total)
T3918 6544:130 JLINK_SetBPEx(Addr = 0x1FFFF000, Type = 0xFFFFFFF2)  returns 0x0000000E (0000ms, 80063ms total)
T3918 6544:130 JLINK_Go() -- CPU_WriteMem(4 bytes @ 0xE0002000) -- CPU_ReadMem(4 bytes @ 0xE0001000) -- CPU_WriteMem(4 bytes @ 0xE0001000) (0009ms, 80072ms total)
T3918 6544:139 JLINK_IsHalted()  returns FALSE (0002ms, 80074ms total)
T3918 6544:142 JLINK_IsHalted()  returns FALSE (0001ms, 80073ms total)
T3918 6544:145 JLINK_IsHalted()  returns FALSE (0001ms, 80073ms total)
T3918 6544:147 JLINK_IsHalted()  returns FALSE (0001ms, 80073ms total)
T3918 6544:150 JLINK_IsHalted()  returns TRUE (0011ms, 80083ms total)
T3918 6544:161 JLINK_ReadReg(R15 (PC))  returns 0x1FFFF000 (0000ms, 80072ms total)
T3918 6544:161 JLINK_ClrBPEx(BPHandle = 0x0000000E)  returns 0x00 (0000ms, 80072ms total)
